 INFO 2026-06-28T19:33:44.327 ..\..\src\mainwindow.cpp @ 440 Request transaction. No or registers =  1 
 INFO 2026-06-28T19:33:44.327 ..\..\src\modbusadapter.cpp @ 159 Modbus Transaction. Function Code =  3 
 INFO 2026-06-28T19:33:44.327 ..\..\src\modbusadapter.cpp @ 188 Modbus Read Data  
 INFO 2026-06-28T19:33:44.327 ..\..\src\modbusadapter.cpp @ 358 Tx Data :  "01  03  00  01  00  01  d5  ca  " 
 INFO 2026-06-28T19:33:44.327 ..\..\src\rawdatamodel.cpp @ 17 Raw Data Model Line =  "[RTU]>Tx > 19:33:44:327 : 01  03  00  01  00  01  D5  CA  "  , No of lines =  0 
 INFO 2026-06-28T19:33:44.327 ..\..\src\modbusadapter.cpp @ 377 Rx Data :  "01  03  14  17  02  02  01  03  00  8d  c2  00  03  09  dc  01  23  34  20  01  32  00  31  b6  18  " 
 INFO 2026-06-28T19:33:44.348 ..\..\src\rawdatamodel.cpp @ 17 Raw Data Model Line =  "[RTU]>Rx > 19:33:44:348 : 01  03  14  17  02  02  01  03  00  8D  C2  00  03  09  DC  01  23  34  20  01  32  00  31  B6  18  "  , No of lines =  1 
 INFO 2026-06-28T19:33:44.348 ..\..\src\modbusadapter.cpp @ 224 Modbus Read Data return value =  -1 
ERROR 2026-06-28T19:33:44.348 ..\..\src\modbusadapter.cpp @ 245 Modbus Read Data failed.  "System exception. [Invalid data]" 
 INFO 2026-06-28T19:33:44.348 ..\..\src\rawdatamodel.cpp @ 17 Raw Data Model Line =  "Sys > 19:33:44:348 : System exception. [Invalid data]"  , No of lines =  2 
 INFO 2026-06-28T19:33:44.348 ..\..\src\mainwindow.cpp @ 547 Packets sent / received =  61 , errors =  6 
 INFO 2026-06-28T19:33:46.511 ..\..\src\mainwindow.cpp @ 440 Request transaction. No or registers =  1 
 INFO 2026-06-28T19:33:46.511 ..\..\src\modbusadapter.cpp @ 159 Modbus Transaction. Function Code =  3 
 INFO 2026-06-28T19:33:46.511 ..\..\src\modbusadapter.cpp @ 188 Modbus Read Data  
 INFO 2026-06-28T19:33:46.511 ..\..\src\modbusadapter.cpp @ 358 Tx Data :  "01  03  00  01  00  01  d5  ca  " 
 INFO 2026-06-28T19:33:46.511 ..\..\src\rawdatamodel.cpp @ 17 Raw Data Model Line =  "[RTU]>Tx > 19:33:46:511 : 01  03  00  01  00  01  D5  CA  "  , No of lines =  3 
 INFO 2026-06-28T19:33:46.527 ..\..\src\modbusadapter.cpp @ 377 Rx Data :  "01  03  02  02  01  78  e4  " 
 INFO 2026-06-28T19:33:46.527 ..\..\src\rawdatamodel.cpp @ 17 Raw Data Model Line =  "[RTU]>Rx > 19:33:46:527 : 01  03  02  02  01  78  E4  "  , No of lines =  4 
 INFO 2026-06-28T19:33:46.527 ..\..\src\modbusadapter.cpp @ 224 Modbus Read Data return value =  1 
 INFO 2026-06-28T19:33:46.527 ..\..\src\mainwindow.cpp @ 547 Packets sent / received =  62 , errors =  6 
 INFO 2026-06-28T19:33:48.692 ..\..\src\mainwindow.cpp @ 440 Request transaction. No or registers =  1 
 INFO 2026-06-28T19:33:48.692 ..\..\src\modbusadapter.cpp @ 159 Modbus Transaction. Function Code =  3 
 INFO 2026-06-28T19:33:48.695 ..\..\src\modbusadapter.cpp @ 188 Modbus Read Data  
 INFO 2026-06-28T19:33:48.695 ..\..\src\modbusadapter.cpp @ 358 Tx Data :  "01  03  00  01  00  01  d5  ca  " 
 INFO 2026-06-28T19:33:48.695 ..\..\src\rawdatamodel.cpp @ 17 Raw Data Model Line =  "[RTU]>Tx > 19:33:48:695 : 01  03  00  01  00  01  D5  CA  "  , No of lines =  5 
 INFO 2026-06-28T19:33:48.695 ..\..\src\modbusadapter.cpp @ 377 Rx Data :  "01  03  02  02  01  78  e4  " 
 INFO 2026-06-28T19:33:48.695 ..\..\src\rawdatamodel.cpp @ 17 Raw Data Model Line =  "[RTU]>Rx > 19:33:48:695 : 01  03  02  02  01  78  E4  "  , No of lines =  6 
 INFO 2026-06-28T19:33:48.695 ..\..\src\modbusadapter.cpp @ 224 Modbus Read Data return value =  1 
 INFO 2026-06-28T19:33:48.695 ..\..\src\mainwindow.cpp @ 547 Packets sent / received =  63 , errors =  6 
 INFO 2026-06-28T19:33:52.991 ..\..\src\mainwindow.cpp @ 353 Start Address changed. Value =  0 
 INFO 2026-06-28T19:33:52.991 ..\..\src\mainwindow.cpp @ 415 Add Items. Function Code =  "3" 
 INFO 2026-06-28T19:33:52.991 ..\..\src\registersmodel.cpp @ 28 Registers Model Address =  0  , noOfItems =  1  , offset =  0  , first row =  0  , last row =  0 
 INFO 2026-06-28T19:33:52.991 ..\..\src\registersmodel.cpp @ 202 Registers Model Cleared 
 INFO 2026-06-28T19:33:52.991 ..\..\src\mainwindow.cpp @ 547 Packets sent / received =  63 , errors =  6 
 INFO 2026-06-28T19:33:53.876 ..\..\src\mainwindow.cpp @ 364 No Of Regs changed. Value =  10 
 INFO 2026-06-28T19:33:53.876 ..\..\src\mainwindow.cpp @ 415 Add Items. Function Code =  "3" 
 INFO 2026-06-28T19:33:53.876 ..\..\src\registersmodel.cpp @ 28 Registers Model Address =  0  , noOfItems =  10  , offset =  0  , first row =  0  , last row =  0 
 INFO 2026-06-28T19:33:53.876 ..\..\src\registersmodel.cpp @ 202 Registers Model Cleared 
 INFO 2026-06-28T19:33:53.876 ..\..\src\mainwindow.cpp @ 547 Packets sent / received =  63 , errors =  6 
 INFO 2026-06-28T19:33:54.807 ..\..\src\mainwindow.cpp @ 440 Request transaction. No or registers =  1 
 INFO 2026-06-28T19:33:54.807 ..\..\src\modbusadapter.cpp @ 159 Modbus Transaction. Function Code =  3 
 INFO 2026-06-28T19:33:54.807 ..\..\src\modbusadapter.cpp @ 188 Modbus Read Data  
 INFO 2026-06-28T19:33:54.807 ..\..\src\modbusadapter.cpp @ 358 Tx Data :  "01  03  00  00  00  0a  c5  cd  " 
 INFO 2026-06-28T19:33:54.807 ..\..\src\rawdatamodel.cpp @ 17 Raw Data Model Line =  "[RTU]>Tx > 19:33:54:807 : 01  03  00  00  00  0A  C5  CD  "  , No of lines =  7 
 INFO 2026-06-28T19:33:54.807 ..\..\src\modbusadapter.cpp @ 377 Rx Data :  "01  03  02  02  01  78  e4  " 
 INFO 2026-06-28T19:33:54.807 ..\..\src\rawdatamodel.cpp @ 17 Raw Data Model Line =  "[RTU]>Rx > 19:33:54:807 : 01  03  02  02  01  78  E4  "  , No of lines =  8 
 INFO 2026-06-28T19:33:54.807 ..\..\src\modbusadapter.cpp @ 224 Modbus Read Data return value =  -1 
ERROR 2026-06-28T19:33:54.807 ..\..\src\modbusadapter.cpp @ 245 Modbus Read Data failed.  "System exception. [Invalid data]" 
 INFO 2026-06-28T19:33:54.807 ..\..\src\rawdatamodel.cpp @ 17 Raw Data Model Line =  "Sys > 19:33:54:807 : System exception. [Invalid data]"  , No of lines =  9 
 INFO 2026-06-28T19:33:54.807 ..\..\src\mainwindow.cpp @ 547 Packets sent / received =  64 , errors =  7 
 INFO 2026-06-28T19:33:56.946 ..\..\src\mainwindow.cpp @ 364 No Of Regs changed. Value =  1 
 INFO 2026-06-28T19:33:56.947 ..\..\src\mainwindow.cpp @ 415 Add Items. Function Code =  "3" 
 INFO 2026-06-28T19:33:56.947 ..\..\src\registersmodel.cpp @ 28 Registers Model Address =  0  , noOfItems =  1  , offset =  0  , first row =  0  , last row =  0 
 INFO 2026-06-28T19:33:56.947 ..\..\src\registersmodel.cpp @ 202 Registers Model Cleared 
 INFO 2026-06-28T19:33:56.947 ..\..\src\mainwindow.cpp @ 547 Packets sent / received =  64 , errors =  7 
 INFO 2026-06-28T19:33:57.343 ..\..\src\mainwindow.cpp @ 364 No Of Regs changed. Value =  10 
 INFO 2026-06-28T19:33:57.343 ..\..\src\mainwindow.cpp @ 415 Add Items. Function Code =  "3" 
 INFO 2026-06-28T19:33:57.343 ..\..\src\registersmodel.cpp @ 28 Registers Model Address =  0  , noOfItems =  10  , offset =  0  , first row =  0  , last row =  0 
 INFO 2026-06-28T19:33:57.343 ..\..\src\registersmodel.cpp @ 202 Registers Model Cleared 
 INFO 2026-06-28T19:33:57.343 ..\..\src\mainwindow.cpp @ 547 Packets sent / received =  64 , errors =  7 
 INFO 2026-06-28T19:33:58.042 ..\..\src\mainwindow.cpp @ 364 No Of Regs changed. Value =  1 
 INFO 2026-06-28T19:33:58.042 ..\..\src\mainwindow.cpp @ 415 Add Items. Function Code =  "3" 
 INFO 2026-06-28T19:33:58.042 ..\..\src\registersmodel.cpp @ 28 Registers Model Address =  0  , noOfItems =  1  , offset =  0  , first row =  0  , last row =  0 
 INFO 2026-06-28T19:33:58.042 ..\..\src\registersmodel.cpp @ 202 Registers Model Cleared 
 INFO 2026-06-28T19:33:58.042 ..\..\src\mainwindow.cpp @ 547 Packets sent / received =  64 , errors =  7 
 INFO 2026-06-28T19:33:59.209 ..\..\src\mainwindow.cpp @ 364 No Of Regs changed. Value =  5 
 INFO 2026-06-28T19:33:59.209 ..\..\src\mainwindow.cpp @ 415 Add Items. Function Code =  "3" 
 INFO 2026-06-28T19:33:59.209 ..\..\src\registersmodel.cpp @ 28 Registers Model Address =  0  , noOfItems =  5  , offset =  0  , first row =  0  , last row =  0 
 INFO 2026-06-28T19:33:59.209 ..\..\src\registersmodel.cpp @ 202 Registers Model Cleared 
 INFO 2026-06-28T19:33:59.209 ..\..\src\mainwindow.cpp @ 547 Packets sent / received =  64 , errors =  7 
 INFO 2026-06-28T19:33:59.812 ..\..\src\mainwindow.cpp @ 440 Request transaction. No or registers =  1 
 INFO 2026-06-28T19:33:59.812 ..\..\src\modbusadapter.cpp @ 159 Modbus Transaction. Function Code =  3 
 INFO 2026-06-28T19:33:59.812 ..\..\src\modbusadapter.cpp @ 188 Modbus Read Data  
 INFO 2026-06-28T19:33:59.812 ..\..\src\modbusadapter.cpp @ 358 Tx Data :  "01  03  00  00  00  05  85  c9  " 
 INFO 2026-06-28T19:33:59.812 ..\..\src\rawdatamodel.cpp @ 17 Raw Data Model Line =  "[RTU]>Tx > 19:33:59:812 : 01  03  00  00  00  05  85  C9  "  , No of lines =  10 
 INFO 2026-06-28T19:33:59.812 ..\..\src\modbusadapter.cpp @ 377 Rx Data :  "01  03  14  17  02  02  01  03  00  8d  c2  00  03  09  dc  01  23  34  20  01  32  00  31  b6  18  " 
 INFO 2026-06-28T19:33:59.812 ..\..\src\rawdatamodel.cpp @ 17 Raw Data Model Line =  "[RTU]>Rx > 19:33:59:812 : 01  03  14  17  02  02  01  03  00  8D  C2  00  03  09  DC  01  23  34  20  01  32  00  31  B6  18  "  , No of lines =  11 
 INFO 2026-06-28T19:33:59.812 ..\..\src\modbusadapter.cpp @ 224 Modbus Read Data return value =  -1 
ERROR 2026-06-28T19:33:59.812 ..\..\src\modbusadapter.cpp @ 245 Modbus Read Data failed.  "System exception. [Invalid data]" 
 INFO 2026-06-28T19:33:59.812 ..\..\src\rawdatamodel.cpp @ 17 Raw Data Model Line =  "Sys > 19:33:59:812 : System exception. [Invalid data]"  , No of lines =  12 
 INFO 2026-06-28T19:33:59.812 ..\..\src\mainwindow.cpp @ 547 Packets sent / received =  65 , errors =  8 
 INFO 2026-06-28T19:34:00.673 ..\..\src\mainwindow.cpp @ 440 Request transaction. No or registers =  1 
 INFO 2026-06-28T19:34:00.673 ..\..\src\modbusadapter.cpp @ 159 Modbus Transaction. Function Code =  3 
 INFO 2026-06-28T19:34:00.673 ..\..\src\modbusadapter.cpp @ 188 Modbus Read Data  
 INFO 2026-06-28T19:34:00.673 ..\..\src\modbusadapter.cpp @ 358 Tx Data :  "01  03  00  00  00  05  85  c9  " 
 INFO 2026-06-28T19:34:00.673 ..\..\src\rawdatamodel.cpp @ 17 Raw Data Model Line =  "[RTU]>Tx > 19:34:00:673 : 01  03  00  00  00  05  85  C9  "  , No of lines =  13 
 INFO 2026-06-28T19:34:00.673 ..\..\src\modbusadapter.cpp @ 377 Rx Data :  "01  03  0a  17  02  02  01  03  00  8d  c2  00  03  d6  22  " 
 INFO 2026-06-28T19:34:00.673 ..\..\src\rawdatamodel.cpp @ 17 Raw Data Model Line =  "[RTU]>Rx > 19:34:00:673 : 01  03  0A  17  02  02  01  03  00  8D  C2  00  03  D6  22  "  , No of lines =  14 
 INFO 2026-06-28T19:34:00.673 ..\..\src\modbusadapter.cpp @ 224 Modbus Read Data return value =  5 
 INFO 2026-06-28T19:34:00.673 ..\..\src\mainwindow.cpp @ 547 Packets sent / received =  66 , errors =  8 
 INFO 2026-06-28T19:34:03.609 ..\..\src\mainwindow.cpp @ 364 No Of Regs changed. Value =  1 
 INFO 2026-06-28T19:34:03.609 ..\..\src\mainwindow.cpp @ 415 Add Items. Function Code =  "3" 
 INFO 2026-06-28T19:34:03.609 ..\..\src\registersmodel.cpp @ 28 Registers Model Address =  0  , noOfItems =  1  , offset =  0  , first row =  0  , last row =  0 
 INFO 2026-06-28T19:34:03.609 ..\..\src\registersmodel.cpp @ 202 Registers Model Cleared 
 INFO 2026-06-28T19:34:03.609 ..\..\src\mainwindow.cpp @ 547 Packets sent / received =  66 , errors =  8 
 INFO 2026-06-28T19:34:03.641 ..\..\src\mainwindow.cpp @ 364 No Of Regs changed. Value =  10 
 INFO 2026-06-28T19:34:03.641 ..\..\src\mainwindow.cpp @ 415 Add Items. Function Code =  "3" 
 INFO 2026-06-28T19:34:03.641 ..\..\src\registersmodel.cpp @ 28 Registers Model Address =  0  , noOfItems =  10  , offset =  0  , first row =  0  , last row =  0 
 INFO 2026-06-28T19:34:03.641 ..\..\src\registersmodel.cpp @ 202 Registers Model Cleared 
 INFO 2026-06-28T19:34:03.641 ..\..\src\mainwindow.cpp @ 547 Packets sent / received =  66 , errors =  8 
 INFO 2026-06-28T19:34:04.194 ..\..\src\mainwindow.cpp @ 440 Request transaction. No or registers =  1 
 INFO 2026-06-28T19:34:04.194 ..\..\src\modbusadapter.cpp @ 159 Modbus Transaction. Function Code =  3 
 INFO 2026-06-28T19:34:04.194 ..\..\src\modbusadapter.cpp @ 188 Modbus Read Data  
 INFO 2026-06-28T19:34:04.194 ..\..\src\modbusadapter.cpp @ 358 Tx Data :  "01  03  00  00  00  0a  c5  cd  " 
 INFO 2026-06-28T19:34:04.194 ..\..\src\rawdatamodel.cpp @ 17 Raw Data Model Line =  "[RTU]>Tx > 19:34:04:194 : 01  03  00  00  00  0A  C5  CD  "  , No of lines =  15 
 INFO 2026-06-28T19:34:04.194 ..\..\src\modbusadapter.cpp @ 377 Rx Data :  "01  03  0a  17  02  02  01  03  00  8d  c2  00  03  d6  22  " 
 INFO 2026-06-28T19:34:04.194 ..\..\src\rawdatamodel.cpp @ 17 Raw Data Model Line =  "[RTU]>Rx > 19:34:04:194 : 01  03  0A  17  02  02  01  03  00  8D  C2  00  03  D6  22  "  , No of lines =  16 
 INFO 2026-06-28T19:34:04.194 ..\..\src\modbusadapter.cpp @ 224 Modbus Read Data return value =  -1 
ERROR 2026-06-28T19:34:04.194 ..\..\src\modbusadapter.cpp @ 245 Modbus Read Data failed.  "System exception. [Invalid data]" 
 INFO 2026-06-28T19:34:04.194 ..\..\src\rawdatamodel.cpp @ 17 Raw Data Model Line =  "Sys > 19:34:04:194 : System exception. [Invalid data]"  , No of lines =  17 
 INFO 2026-06-28T19:34:04.194 ..\..\src\mainwindow.cpp @ 547 Packets sent / received =  67 , errors =  9 
 INFO 2026-06-28T19:34:04.970 ..\..\src\mainwindow.cpp @ 440 Request transaction. No or registers =  1 
 INFO 2026-06-28T19:34:04.970 ..\..\src\modbusadapter.cpp @ 159 Modbus Transaction. Function Code =  3 
 INFO 2026-06-28T19:34:04.970 ..\..\src\modbusadapter.cpp @ 188 Modbus Read Data  
 INFO 2026-06-28T19:34:04.970 ..\..\src\modbusadapter.cpp @ 358 Tx Data :  "01  03  00  00  00  0a  c5  cd  " 
 INFO 2026-06-28T19:34:04.970 ..\..\src\rawdatamodel.cpp @ 17 Raw Data Model Line =  "[RTU]>Tx > 19:34:04:970 : 01  03  00  00  00  0A  C5  CD  "  , No of lines =  18 
 INFO 2026-06-28T19:34:04.970 ..\..\src\modbusadapter.cpp @ 377 Rx Data :  "01  03  14  17  02  02  01  03  00  8d  c2  00  03  09  dc  01  23  34  20  01  32  00  31  b6  18  " 
 INFO 2026-06-28T19:34:04.970 ..\..\src\rawdatamodel.cpp @ 17 Raw Data Model Line =  "[RTU]>Rx > 19:34:04:970 : 01  03  14  17  02  02  01  03  00  8D  C2  00  03  09  DC  01  23  34  20  01  32  00  31  B6  18  "  , No of lines =  19 
 INFO 2026-06-28T19:34:04.970 ..\..\src\modbusadapter.cpp @ 224 Modbus Read Data return value =  10 
 INFO 2026-06-28T19:34:04.970 ..\..\src\mainwindow.cpp @ 547 Packets sent / received =  68 , errors =  9 
 INFO 2026-06-28T19:34:06.856 ..\..\src\mainwindow.cpp @ 364 No Of Regs changed. Value =  1 
 INFO 2026-06-28T19:34:06.856 ..\..\src\mainwindow.cpp @ 415 Add Items. Function Code =  "3" 
 INFO 2026-06-28T19:34:06.856 ..\..\src\registersmodel.cpp @ 28 Registers Model Address =  0  , noOfItems =  1  , offset =  0  , first row =  0  , last row =  0 
 INFO 2026-06-28T19:34:06.856 ..\..\src\registersmodel.cpp @ 202 Registers Model Cleared 
 INFO 2026-06-28T19:34:06.856 ..\..\src\mainwindow.cpp @ 547 Packets sent / received =  68 , errors =  9 
 INFO 2026-06-28T19:34:07.409 ..\..\src\mainwindow.cpp @ 364 No Of Regs changed. Value =  16 
 INFO 2026-06-28T19:34:07.409 ..\..\src\mainwindow.cpp @ 415 Add Items. Function Code =  "3" 
 INFO 2026-06-28T19:34:07.409 ..\..\src\registersmodel.cpp @ 28 Registers Model Address =  0  , noOfItems =  16  , offset =  0  , first row =  0  , last row =  1 
 INFO 2026-06-28T19:34:07.409 ..\..\src\registersmodel.cpp @ 202 Registers Model Cleared 
 INFO 2026-06-28T19:34:07.409 ..\..\src\mainwindow.cpp @ 547 Packets sent / received =  68 , errors =  9 
 INFO 2026-06-28T19:34:08.121 ..\..\src\mainwindow.cpp @ 440 Request transaction. No or registers =  2 
 INFO 2026-06-28T19:34:08.121 ..\..\src\modbusadapter.cpp @ 159 Modbus Transaction. Function Code =  3 
 INFO 2026-06-28T19:34:08.121 ..\..\src\modbusadapter.cpp @ 188 Modbus Read Data  
 INFO 2026-06-28T19:34:08.121 ..\..\src\modbusadapter.cpp @ 358 Tx Data :  "01  03  00  00  00  10  44  06  " 
 INFO 2026-06-28T19:34:08.121 ..\..\src\rawdatamodel.cpp @ 17 Raw Data Model Line =  "[RTU]>Tx > 19:34:08:121 : 01  03  00  00  00  10  44  06  "  , No of lines =  20 
 INFO 2026-06-28T19:34:08.121 ..\..\src\modbusadapter.cpp @ 377 Rx Data :  "01  03  14  17  02  02  01  03  00  8d  c2  00  03  09  dc  01  23  34  20  01  32  00  31  b6  18  " 
 INFO 2026-06-28T19:34:08.121 ..\..\src\rawdatamodel.cpp @ 17 Raw Data Model Line =  "[RTU]>Rx > 19:34:08:121 : 01  03  14  17  02  02  01  03  00  8D  C2  00  03  09  DC  01  23  34  20  01  32  00  31  B6  18  "  , No of lines =  21 
 INFO 2026-06-28T19:34:08.121 ..\..\src\modbusadapter.cpp @ 224 Modbus Read Data return value =  -1 
ERROR 2026-06-28T19:34:08.121 ..\..\src\modbusadapter.cpp @ 245 Modbus Read Data failed.  "System exception. [Invalid data]" 
 INFO 2026-06-28T19:34:08.121 ..\..\src\rawdatamodel.cpp @ 17 Raw Data Model Line =  "Sys > 19:34:08:121 : System exception. [Invalid data]"  , No of lines =  22 
 INFO 2026-06-28T19:34:08.121 ..\..\src\mainwindow.cpp @ 547 Packets sent / received =  69 , errors =  10 
 INFO 2026-06-28T19:34:09.357 ..\..\src\mainwindow.cpp @ 440 Request transaction. No or registers =  2 
 INFO 2026-06-28T19:34:09.357 ..\..\src\modbusadapter.cpp @ 159 Modbus Transaction. Function Code =  3 
 INFO 2026-06-28T19:34:09.357 ..\..\src\modbusadapter.cpp @ 188 Modbus Read Data  
 INFO 2026-06-28T19:34:09.357 ..\..\src\modbusadapter.cpp @ 358 Tx Data :  "01  03  00  00  00  10  44  06  " 
 INFO 2026-06-28T19:34:09.357 ..\..\src\rawdatamodel.cpp @ 17 Raw Data Model Line =  "[RTU]>Tx > 19:34:09:357 : 01  03  00  00  00  10  44  06  "  , No of lines =  23 
 INFO 2026-06-28T19:34:09.357 ..\..\src\modbusadapter.cpp @ 377 Rx Data :  "01  03  20  17  02  02  01  03  00  8d  c2  00  03  09  dc  01  23  34  20  01  32  00  31  04  0a  03  00  00  00  00  00  00  00  00  00  e5  44  " 
 INFO 2026-06-28T19:34:09.357 ..\..\src\rawdatamodel.cpp @ 17 Raw Data Model Line =  "[RTU]>Rx > 19:34:09:357 : 01  03  20  17  02  02  01  03  00  8D  C2  00  03  09  DC  01  23  34  20  01  32  00  31  04  0A  03  00  00  00  00  00  00  00  00  00  E5  44  "  , No of lines =  24 
 INFO 2026-06-28T19:34:09.357 ..\..\src\modbusadapter.cpp @ 224 Modbus Read Data return value =  16 
 INFO 2026-06-28T19:34:09.357 ..\..\src\mainwindow.cpp @ 547 Packets sent / received =  70 , errors =  10 
 INFO 2026-06-28T19:34:11.864 ..\..\src\mainwindow.cpp @ 364 No Of Regs changed. Value =  2 
 INFO 2026-06-28T19:34:11.864 ..\..\src\mainwindow.cpp @ 415 Add Items. Function Code =  "3" 
 INFO 2026-06-28T19:34:11.864 ..\..\src\registersmodel.cpp @ 28 Registers Model Address =  0  , noOfItems =  2  , offset =  0  , first row =  0  , last row =  0 
 INFO 2026-06-28T19:34:11.864 ..\..\src\registersmodel.cpp @ 202 Registers Model Cleared 
 INFO 2026-06-28T19:34:11.864 ..\..\src\mainwindow.cpp @ 547 Packets sent / received =  70 , errors =  10 
 INFO 2026-06-28T19:34:12.054 ..\..\src\mainwindow.cpp @ 364 No Of Regs changed. Value =  25 
 INFO 2026-06-28T19:34:12.054 ..\..\src\mainwindow.cpp @ 415 Add Items. Function Code =  "3" 
 INFO 2026-06-28T19:34:12.054 ..\..\src\registersmodel.cpp @ 28 Registers Model Address =  0  , noOfItems =  25  , offset =  0  , first row =  0  , last row =  2 
 INFO 2026-06-28T19:34:12.054 ..\..\src\registersmodel.cpp @ 202 Registers Model Cleared 
 INFO 2026-06-28T19:34:12.054 ..\..\src\mainwindow.cpp @ 547 Packets sent / received =  70 , errors =  10 
 INFO 2026-06-28T19:34:17.066 ..\..\src\rawdatamodel.cpp @ 29 Raw Data Model cleared 
 INFO 2026-06-28T19:34:22.315 ..\..\src\mainwindow.cpp @ 440 Request transaction. No or registers =  3 
 INFO 2026-06-28T19:34:22.315 ..\..\src\modbusadapter.cpp @ 159 Modbus Transaction. Function Code =  3 
 INFO 2026-06-28T19:34:22.315 ..\..\src\modbusadapter.cpp @ 188 Modbus Read Data  
 INFO 2026-06-28T19:34:22.315 ..\..\src\modbusadapter.cpp @ 358 Tx Data :  "01  03  00  00  00  19  84  00  " 
 INFO 2026-06-28T19:34:22.315 ..\..\src\rawdatamodel.cpp @ 17 Raw Data Model Line =  "[RTU]>Tx > 19:34:22:315 : 01  03  00  00  00  19  84  00  "  , No of lines =  0 
 INFO 2026-06-28T19:34:22.315 ..\..\src\modbusadapter.cpp @ 377 Rx Data :  "01  03  20  17  02  02  01  03  00  8d  c2  00  03  09  dc  01  23  34  20  01  32  00  31  04  0a  03  00  00  00  00  00  00  00  00  00  e5  44  " 
 INFO 2026-06-28T19:34:22.315 ..\..\src\rawdatamodel.cpp @ 17 Raw Data Model Line =  "[RTU]>Rx > 19:34:22:315 : 01  03  20  17  02  02  01  03  00  8D  C2  00  03  09  DC  01  23  34  20  01  32  00  31  04  0A  03  00  00  00  00  00  00  00  00  00  E5  44  "  , No of lines =  1 
 INFO 2026-06-28T19:34:22.315 ..\..\src\modbusadapter.cpp @ 224 Modbus Read Data return value =  -1 
ERROR 2026-06-28T19:34:22.315 ..\..\src\modbusadapter.cpp @ 245 Modbus Read Data failed.  "System exception. [Invalid data]" 
 INFO 2026-06-28T19:34:22.315 ..\..\src\rawdatamodel.cpp @ 17 Raw Data Model Line =  "Sys > 19:34:22:315 : System exception. [Invalid data]"  , No of lines =  2 
 INFO 2026-06-28T19:34:22.315 ..\..\src\mainwindow.cpp @ 547 Packets sent / received =  71 , errors =  11 
 INFO 2026-06-28T19:34:30.286 ..\..\src\mainwindow.cpp @ 440 Request transaction. No or registers =  3 
 INFO 2026-06-28T19:34:30.286 ..\..\src\modbusadapter.cpp @ 159 Modbus Transaction. Function Code =  3 
 INFO 2026-06-28T19:34:30.286 ..\..\src\modbusadapter.cpp @ 188 Modbus Read Data  
 INFO 2026-06-28T19:34:30.286 ..\..\src\modbusadapter.cpp @ 358 Tx Data :  "01  03  00  00  00  19  84  00  " 
 INFO 2026-06-28T19:34:30.286 ..\..\src\rawdatamodel.cpp @ 17 Raw Data Model Line =  "[RTU]>Tx > 19:34:30:286 : 01  03  00  00  00  19  84  00  "  , No of lines =  3 
 INFO 2026-06-28T19:34:30.286 ..\..\src\modbusadapter.cpp @ 377 Rx Data :  "01  03  32  17  02  02  01  03  00  8d  c2  00  03  09  dc  01  23  34  20  01  32  00  31  04  0a  03  00  00  00  00  00  00  00  00  00  00  00  00  00  00  00  1d  16  67  da  d6  e9  6f  9e  fc  a8  5e  1f  9b  6e  " 
 INFO 2026-06-28T19:34:30.286 ..\..\src\rawdatamodel.cpp @ 17 Raw Data Model Line =  "[RTU]>Rx > 19:34:30:286 : 01  03  32  17  02  02  01  03  00  8D  C2  00  03  09  DC  01  23  34  20  01  32  00  31  04  0A  03  00  00  00  00  00  00  00  00  00  00  00  00  00  00  00  1D  16  67  DA  D6  E9  6F  9E  FC  A8  5E  1F  9B  6E  "  , No of lines =  4 
 INFO 2026-06-28T19:34:30.286 ..\..\src\modbusadapter.cpp @ 224 Modbus Read Data return value =  25 
 INFO 2026-06-28T19:34:30.286 ..\..\src\mainwindow.cpp @ 547 Packets sent / received =  72 , errors =  11 
 INFO 2026-06-28T19:34:49.755 ..\..\src\mainwindow.cpp @ 440 Request transaction. No or registers =  3 
 INFO 2026-06-28T19:34:49.755 ..\..\src\modbusadapter.cpp @ 159 Modbus Transaction. Function Code =  3 
 INFO 2026-06-28T19:34:49.755 ..\..\src\modbusadapter.cpp @ 188 Modbus Read Data  
 INFO 2026-06-28T19:34:49.755 ..\..\src\modbusadapter.cpp @ 358 Tx Data :  "01  03  00  00  00  19  84  00  " 
 INFO 2026-06-28T19:34:49.755 ..\..\src\rawdatamodel.cpp @ 17 Raw Data Model Line =  "[RTU]>Tx > 19:34:49:755 : 01  03  00  00  00  19  84  00  "  , No of lines =  5 
 INFO 2026-06-28T19:34:49.755 ..\..\src\modbusadapter.cpp @ 377 Rx Data :  "01  03  32  17  02  02  01  03  00  8d  c2  00  03  09  dc  01  23  34  20  01  32  00  31  04  0a  03  00  00  00  00  00  00  00  00  00  00  00  00  00  00  00  e2  eb  98  25  d6  eb  6f  9e  03  5e  a1  e1  b7  45  " 
 INFO 2026-06-28T19:34:49.755 ..\..\src\rawdatamodel.cpp @ 17 Raw Data Model Line =  "[RTU]>Rx > 19:34:49:755 : 01  03  32  17  02  02  01  03  00  8D  C2  00  03  09  DC  01  23  34  20  01  32  00  31  04  0A  03  00  00  00  00  00  00  00  00  00  00  00  00  00  00  00  E2  EB  98  25  D6  EB  6F  9E  03  5E  A1  E1  B7  45  "  , No of lines =  6 
 INFO 2026-06-28T19:34:49.755 ..\..\src\modbusadapter.cpp @ 224 Modbus Read Data return value =  25 
 INFO 2026-06-28T19:34:49.755 ..\..\src\mainwindow.cpp @ 547 Packets sent / received =  73 , errors =  11 
 INFO 2026-06-28T19:34:51.038 ..\..\src\mainwindow.cpp @ 440 Request transaction. No or registers =  3 
 INFO 2026-06-28T19:34:51.038 ..\..\src\modbusadapter.cpp @ 159 Modbus Transaction. Function Code =  3 
 INFO 2026-06-28T19:34:51.038 ..\..\src\modbusadapter.cpp @ 188 Modbus Read Data  
 INFO 2026-06-28T19:34:51.038 ..\..\src\modbusadapter.cpp @ 358 Tx Data :  "01  03  00  00  00  19  84  00  " 
 INFO 2026-06-28T19:34:51.038 ..\..\src\rawdatamodel.cpp @ 17 Raw Data Model Line =  "[RTU]>Tx > 19:34:51:038 : 01  03  00  00  00  19  84  00  "  , No of lines =  7 
 INFO 2026-06-28T19:34:51.038 ..\..\src\modbusadapter.cpp @ 377 Rx Data :  "01  03  32  17  02  02  01  03  00  8d  c2  00  03  09  dc  01  23  34  20  01  32  00  31  04  0a  03  00  00  00  00  00  00  00  00  00  00  00  00  00  00  00  1d  1a  67  da  d6  e5  6f  9e  fc  b0  5e  1f  e8  39  " 
 INFO 2026-06-28T19:34:51.038 ..\..\src\rawdatamodel.cpp @ 17 Raw Data Model Line =  "[RTU]>Rx > 19:34:51:038 : 01  03  32  17  02  02  01  03  00  8D  C2  00  03  09  DC  01  23  34  20  01  32  00  31  04  0A  03  00  00  00  00  00  00  00  00  00  00  00  00  00  00  00  1D  1A  67  DA  D6  E5  6F  9E  FC  B0  5E  1F  E8  39  "  , No of lines =  8 
 INFO 2026-06-28T19:34:51.038 ..\..\src\modbusadapter.cpp @ 224 Modbus Read Data return value =  25 
 INFO 2026-06-28T19:34:51.038 ..\..\src\mainwindow.cpp @ 547 Packets sent / received =  74 , errors =  11 
 INFO 2026-06-28T19:34:52.019 ..\..\src\mainwindow.cpp @ 440 Request transaction. No or registers =  3 
 INFO 2026-06-28T19:34:52.019 ..\..\src\modbusadapter.cpp @ 159 Modbus Transaction. Function Code =  3 
 INFO 2026-06-28T19:34:52.019 ..\..\src\modbusadapter.cpp @ 188 Modbus Read Data  
 INFO 2026-06-28T19:34:52.019 ..\..\src\modbusadapter.cpp @ 358 Tx Data :  "01  03  00  00  00  19  84  00  " 
 INFO 2026-06-28T19:34:52.019 ..\..\src\rawdatamodel.cpp @ 17 Raw Data Model Line =  "[RTU]>Tx > 19:34:52:019 : 01  03  00  00  00  19  84  00  "  , No of lines =  9 
 INFO 2026-06-28T19:34:52.019 ..\..\src\modbusadapter.cpp @ 377 Rx Data :  "01  03  32  17  02  02  01  03  00  8d  c2  00  03  09  dc  01  23  34  20  01  32  00  31  04  0a  03  00  00  00  00  00  00  00  00  00  00  00  00  00  00  00  e2  e7  98  25  d6  e7  6f  9e  03  5e  a1  e1  44  15  " 
 INFO 2026-06-28T19:34:52.019 ..\..\src\rawdatamodel.cpp @ 17 Raw Data Model Line =  "[RTU]>Rx > 19:34:52:019 : 01  03  32  17  02  02  01  03  00  8D  C2  00  03  09  DC  01  23  34  20  01  32  00  31  04  0A  03  00  00  00  00  00  00  00  00  00  00  00  00  00  00  00  E2  E7  98  25  D6  E7  6F  9E  03  5E  A1  E1  44  15  "  , No of lines =  10 
 INFO 2026-06-28T19:34:52.019 ..\..\src\modbusadapter.cpp @ 224 Modbus Read Data return value =  25 
 INFO 2026-06-28T19:34:52.019 ..\..\src\mainwindow.cpp @ 547 Packets sent / received =  75 , errors =  11 
 INFO 2026-06-28T19:34:52.791 ..\..\src\mainwindow.cpp @ 440 Request transaction. No or registers =  3 
 INFO 2026-06-28T19:34:52.791 ..\..\src\modbusadapter.cpp @ 159 Modbus Transaction. Function Code =  3 
 INFO 2026-06-28T19:34:52.791 ..\..\src\modbusadapter.cpp @ 188 Modbus Read Data  
 INFO 2026-06-28T19:34:52.791 ..\..\src\modbusadapter.cpp @ 358 Tx Data :  "01  03  00  00  00  19  84  00  " 
 INFO 2026-06-28T19:34:52.791 ..\..\src\rawdatamodel.cpp @ 17 Raw Data Model Line =  "[RTU]>Tx > 19:34:52:791 : 01  03  00  00  00  19  84  00  "  , No of lines =  11 
 INFO 2026-06-28T19:34:52.791 ..\..\src\modbusadapter.cpp @ 377 Rx Data :  "01  03  32  17  02  02  01  03  00  8d  c2  00  03  09  dc  01  23  34  20  01  32  00  31  04  0a  03  00  00  00  00  00  00  00  00  00  00  00  00  00  00  00  1d  1e  67  da  d6  e1  6f  9e  fc  b8  5e  1f  39  0b  " 
 INFO 2026-06-28T19:34:52.791 ..\..\src\rawdatamodel.cpp @ 17 Raw Data Model Line =  "[RTU]>Rx > 19:34:52:791 : 01  03  32  17  02  02  01  03  00  8D  C2  00  03  09  DC  01  23  34  20  01  32  00  31  04  0A  03  00  00  00  00  00  00  00  00  00  00  00  00  00  00  00  1D  1E  67  DA  D6  E1  6F  9E  FC  B8  5E  1F  39  0B  "  , No of lines =  12 
 INFO 2026-06-28T19:34:52.791 ..\..\src\modbusadapter.cpp @ 224 Modbus Read Data return value =  25 
 INFO 2026-06-28T19:34:52.791 ..\..\src\mainwindow.cpp @ 547 Packets sent / received =  76 , errors =  11 
 INFO 2026-06-28T19:34:53.559 ..\..\src\mainwindow.cpp @ 440 Request transaction. No or registers =  3 
 INFO 2026-06-28T19:34:53.559 ..\..\src\modbusadapter.cpp @ 159 Modbus Transaction. Function Code =  3 
 INFO 2026-06-28T19:34:53.559 ..\..\src\modbusadapter.cpp @ 188 Modbus Read Data  
 INFO 2026-06-28T19:34:53.559 ..\..\src\modbusadapter.cpp @ 358 Tx Data :  "01  03  00  00  00  19  84  00  " 
 INFO 2026-06-28T19:34:53.559 ..\..\src\rawdatamodel.cpp @ 17 Raw Data Model Line =  "[RTU]>Tx > 19:34:53:559 : 01  03  00  00  00  19  84  00  "  , No of lines =  13 
 INFO 2026-06-28T19:34:53.559 ..\..\src\modbusadapter.cpp @ 377 Rx Data :  "01  03  32  17  02  02  01  03  00  8d  c2  00  03  09  dc  01  23  34  20  01  32  00  31  04  0a  03  00  00  00  00  00  00  00  00  00  00  00  00  00  00  00  e2  e3  98  25  d6  e3  6f  9e  03  5e  a1  e1  14  e5  " 
 INFO 2026-06-28T19:34:53.559 ..\..\src\rawdatamodel.cpp @ 17 Raw Data Model Line =  "[RTU]>Rx > 19:34:53:559 : 01  03  32  17  02  02  01  03  00  8D  C2  00  03  09  DC  01  23  34  20  01  32  00  31  04  0A  03  00  00  00  00  00  00  00  00  00  00  00  00  00  00  00  E2  E3  98  25  D6  E3  6F  9E  03  5E  A1  E1  14  E5  "  , No of lines =  14 
 INFO 2026-06-28T19:34:53.559 ..\..\src\modbusadapter.cpp @ 224 Modbus Read Data return value =  25 
 INFO 2026-06-28T19:34:53.559 ..\..\src\mainwindow.cpp @ 547 Packets sent / received =  77 , errors =  11 
 INFO 2026-06-28T19:34:54.286 ..\..\src\mainwindow.cpp @ 440 Request transaction. No or registers =  3 
 INFO 2026-06-28T19:34:54.286 ..\..\src\modbusadapter.cpp @ 159 Modbus Transaction. Function Code =  3 
 INFO 2026-06-28T19:34:54.286 ..\..\src\modbusadapter.cpp @ 188 Modbus Read Data  
 INFO 2026-06-28T19:34:54.286 ..\..\src\modbusadapter.cpp @ 358 Tx Data :  "01  03  00  00  00  19  84  00  " 
 INFO 2026-06-28T19:34:54.286 ..\..\src\rawdatamodel.cpp @ 17 Raw Data Model Line =  "[RTU]>Tx > 19:34:54:286 : 01  03  00  00  00  19  84  00  "  , No of lines =  15 
 INFO 2026-06-28T19:34:54.286 ..\..\src\modbusadapter.cpp @ 377 Rx Data :  "01  03  32  17  02  02  01  03  00  8d  c2  00  03  09  dc  01  23  34  20  01  32  00  31  04  0a  03  00  00  00  00  00  00  00  00  00  00  00  00  00  00  00  1d  02  67  da  d6  fd  6f  9e  fc  80  5e  1f  0e  97  " 
 INFO 2026-06-28T19:34:54.286 ..\..\src\rawdatamodel.cpp @ 17 Raw Data Model Line =  "[RTU]>Rx > 19:34:54:286 : 01  03  32  17  02  02  01  03  00  8D  C2  00  03  09  DC  01  23  34  20  01  32  00  31  04  0A  03  00  00  00  00  00  00  00  00  00  00  00  00  00  00  00  1D  02  67  DA  D6  FD  6F  9E  FC  80  5E  1F  0E  97  "  , No of lines =  16 
 INFO 2026-06-28T19:34:54.286 ..\..\src\modbusadapter.cpp @ 224 Modbus Read Data return value =  25 
 INFO 2026-06-28T19:34:54.286 ..\..\src\mainwindow.cpp @ 547 Packets sent / received =  78 , errors =  11 
 INFO 2026-06-28T19:34:54.941 ..\..\src\mainwindow.cpp @ 440 Request transaction. No or registers =  3 
 INFO 2026-06-28T19:34:54.941 ..\..\src\modbusadapter.cpp @ 159 Modbus Transaction. Function Code =  3 
 INFO 2026-06-28T19:34:54.941 ..\..\src\modbusadapter.cpp @ 188 Modbus Read Data  
 INFO 2026-06-28T19:34:54.941 ..\..\src\modbusadapter.cpp @ 358 Tx Data :  "01  03  00  00  00  19  84  00  " 
 INFO 2026-06-28T19:34:54.941 ..\..\src\rawdatamodel.cpp @ 17 Raw Data Model Line =  "[RTU]>Tx > 19:34:54:941 : 01  03  00  00  00  19  84  00  "  , No of lines =  17 
 INFO 2026-06-28T19:34:54.941 ..\..\src\modbusadapter.cpp @ 377 Rx Data :  "01  03  32  17  02  02  01  03  00  8d  c2  00  03  09  dc  01  23  34  20  01  32  00  31  04  0a  03  00  00  00  00  00  00  00  00  00  00  00  00  00  00  00  e2  ff  98  25  d6  ff  6f  9e  03  5e  a1  e1  a2  b4  " 
 INFO 2026-06-28T19:34:54.941 ..\..\src\rawdatamodel.cpp @ 17 Raw Data Model Line =  "[RTU]>Rx > 19:34:54:941 : 01  03  32  17  02  02  01  03  00  8D  C2  00  03  09  DC  01  23  34  20  01  32  00  31  04  0A  03  00  00  00  00  00  00  00  00  00  00  00  00  00  00  00  E2  FF  98  25  D6  FF  6F  9E  03  5E  A1  E1  A2  B4  "  , No of lines =  18 
 INFO 2026-06-28T19:34:54.941 ..\..\src\modbusadapter.cpp @ 224 Modbus Read Data return value =  25 
 INFO 2026-06-28T19:34:54.941 ..\..\src\mainwindow.cpp @ 547 Packets sent / received =  79 , errors =  11 
 INFO 2026-06-28T19:34:55.583 ..\..\src\mainwindow.cpp @ 440 Request transaction. No or registers =  3 
 INFO 2026-06-28T19:34:55.583 ..\..\src\modbusadapter.cpp @ 159 Modbus Transaction. Function Code =  3 
 INFO 2026-06-28T19:34:55.583 ..\..\src\modbusadapter.cpp @ 188 Modbus Read Data  
 INFO 2026-06-28T19:34:55.583 ..\..\src\modbusadapter.cpp @ 358 Tx Data :  "01  03  00  00  00  19  84  00  " 
 INFO 2026-06-28T19:34:55.583 ..\..\src\rawdatamodel.cpp @ 17 Raw Data Model Line =  "[RTU]>Tx > 19:34:55:583 : 01  03  00  00  00  19  84  00  "  , No of lines =  19 
 INFO 2026-06-28T19:34:55.591 ..\..\src\modbusadapter.cpp @ 377 Rx Data :  "01  03  32  17  02  02  01  03  00  8d  c2  00  03  09  dc  01  23  34  20  01  32  00  31  04  0a  03  00  00  00  00  00  00  00  00  00  00  00  00  00  00  00  1d  06  67  da  d6  f9  6f  9e  fc  88  5e  1f  df  a5  " 
 INFO 2026-06-28T19:34:55.591 ..\..\src\rawdatamodel.cpp @ 17 Raw Data Model Line =  "[RTU]>Rx > 19:34:55:591 : 01  03  32  17  02  02  01  03  00  8D  C2  00  03  09  DC  01  23  34  20  01  32  00  31  04  0A  03  00  00  00  00  00  00  00  00  00  00  00  00  00  00  00  1D  06  67  DA  D6  F9  6F  9E  FC  88  5E  1F  DF  A5  "  , No of lines =  20 
 INFO 2026-06-28T19:34:55.591 ..\..\src\modbusadapter.cpp @ 224 Modbus Read Data return value =  25 
 INFO 2026-06-28T19:34:55.591 ..\..\src\mainwindow.cpp @ 547 Packets sent / received =  80 , errors =  11 
 INFO 2026-06-28T19:34:56.141 ..\..\src\mainwindow.cpp @ 440 Request transaction. No or registers =  3 
 INFO 2026-06-28T19:34:56.141 ..\..\src\modbusadapter.cpp @ 159 Modbus Transaction. Function Code =  3 
 INFO 2026-06-28T19:34:56.141 ..\..\src\modbusadapter.cpp @ 188 Modbus Read Data  
 INFO 2026-06-28T19:34:56.141 ..\..\src\modbusadapter.cpp @ 358 Tx Data :  "01  03  00  00  00  19  84  00  " 
 INFO 2026-06-28T19:34:56.141 ..\..\src\rawdatamodel.cpp @ 17 Raw Data Model Line =  "[RTU]>Tx > 19:34:56:141 : 01  03  00  00  00  19  84  00  "  , No of lines =  21 
 INFO 2026-06-28T19:34:56.141 ..\..\src\modbusadapter.cpp @ 377 Rx Data :  "01  03  32  17  02  02  01  03  00  8d  c2  00  03  09  dc  01  23  34  20  01  32  00  31  04  0a  03  00  00  00  00  00  00  00  00  00  00  00  00  00  00  00  e2  fb  98  25  d6  fb  6f  9e  03  5e  a1  e1  f2  44  " 
 INFO 2026-06-28T19:34:56.141 ..\..\src\rawdatamodel.cpp @ 17 Raw Data Model Line =  "[RTU]>Rx > 19:34:56:141 : 01  03  32  17  02  02  01  03  00  8D  C2  00  03  09  DC  01  23  34  20  01  32  00  31  04  0A  03  00  00  00  00  00  00  00  00  00  00  00  00  00  00  00  E2  FB  98  25  D6  FB  6F  9E  03  5E  A1  E1  F2  44  "  , No of lines =  22 
 INFO 2026-06-28T19:34:56.141 ..\..\src\modbusadapter.cpp @ 224 Modbus Read Data return value =  25 
 INFO 2026-06-28T19:34:56.141 ..\..\src\mainwindow.cpp @ 547 Packets sent / received =  81 , errors =  11 
 INFO 2026-06-28T19:34:56.724 ..\..\src\mainwindow.cpp @ 440 Request transaction. No or registers =  3 
 INFO 2026-06-28T19:34:56.724 ..\..\src\modbusadapter.cpp @ 159 Modbus Transaction. Function Code =  3 
 INFO 2026-06-28T19:34:56.724 ..\..\src\modbusadapter.cpp @ 188 Modbus Read Data  
 INFO 2026-06-28T19:34:56.724 ..\..\src\modbusadapter.cpp @ 358 Tx Data :  "01  03  00  00  00  19  84  00  " 
 INFO 2026-06-28T19:34:56.724 ..\..\src\rawdatamodel.cpp @ 17 Raw Data Model Line =  "[RTU]>Tx > 19:34:56:724 : 01  03  00  00  00  19  84  00  "  , No of lines =  23 
 INFO 2026-06-28T19:34:56.724 ..\..\src\modbusadapter.cpp @ 377 Rx Data :  "01  03  32  17  02  02  01  03  00  8d  c2  00  03  09  dc  01  23  34  20  01  32  00  31  04  0a  03  00  00  00  00  00  00  00  00  00  00  00  00  00  00  00  1d  0a  67  da  d6  f5  6f  9e  fc  90  5e  1f  ac  f2  " 
 INFO 2026-06-28T19:34:56.724 ..\..\src\rawdatamodel.cpp @ 17 Raw Data Model Line =  "[RTU]>Rx > 19:34:56:724 : 01  03  32  17  02  02  01  03  00  8D  C2  00  03  09  DC  01  23  34  20  01  32  00  31  04  0A  03  00  00  00  00  00  00  00  00  00  00  00  00  00  00  00  1D  0A  67  DA  D6  F5  6F  9E  FC  90  5E  1F  AC  F2  "  , No of lines =  24 
 INFO 2026-06-28T19:34:56.724 ..\..\src\modbusadapter.cpp @ 224 Modbus Read Data return value =  25 
 INFO 2026-06-28T19:34:56.724 ..\..\src\mainwindow.cpp @ 547 Packets sent / received =  82 , errors =  11 
 INFO 2026-06-28T19:34:57.292 ..\..\src\mainwindow.cpp @ 440 Request transaction. No or registers =  3 
 INFO 2026-06-28T19:34:57.292 ..\..\src\modbusadapter.cpp @ 159 Modbus Transaction. Function Code =  3 
 INFO 2026-06-28T19:34:57.292 ..\..\src\modbusadapter.cpp @ 188 Modbus Read Data  
 INFO 2026-06-28T19:34:57.292 ..\..\src\modbusadapter.cpp @ 358 Tx Data :  "01  03  00  00  00  19  84  00  " 
 INFO 2026-06-28T19:34:57.292 ..\..\src\rawdatamodel.cpp @ 17 Raw Data Model Line =  "[RTU]>Tx > 19:34:57:292 : 01  03  00  00  00  19  84  00  "  , No of lines =  25 
 INFO 2026-06-28T19:34:57.292 ..\..\src\modbusadapter.cpp @ 377 Rx Data :  "01  03  32  17  02  02  01  03  00  8d  c2  00  03  09  dc  01  23  34  20  01  32  00  31  04  0a  03  00  00  00  00  00  00  00  00  00  00  00  00  00  00  00  e2  f7  98  25  d6  f7  6f  9e  03  5e  a1  e1  01  14  " 
 INFO 2026-06-28T19:34:57.292 ..\..\src\rawdatamodel.cpp @ 17 Raw Data Model Line =  "[RTU]>Rx > 19:34:57:292 : 01  03  32  17  02  02  01  03  00  8D  C2  00  03  09  DC  01  23  34  20  01  32  00  31  04  0A  03  00  00  00  00  00  00  00  00  00  00  00  00  00  00  00  E2  F7  98  25  D6  F7  6F  9E  03  5E  A1  E1  01  14  "  , No of lines =  26 
 INFO 2026-06-28T19:34:57.292 ..\..\src\modbusadapter.cpp @ 224 Modbus Read Data return value =  25 
 INFO 2026-06-28T19:34:57.295 ..\..\src\mainwindow.cpp @ 547 Packets sent / received =  83 , errors =  11 
 INFO 2026-06-28T19:34:57.912 ..\..\src\mainwindow.cpp @ 440 Request transaction. No or registers =  3 
 INFO 2026-06-28T19:34:57.912 ..\..\src\modbusadapter.cpp @ 159 Modbus Transaction. Function Code =  3 
 INFO 2026-06-28T19:34:57.912 ..\..\src\modbusadapter.cpp @ 188 Modbus Read Data  
 INFO 2026-06-28T19:34:57.912 ..\..\src\modbusadapter.cpp @ 358 Tx Data :  "01  03  00  00  00  19  84  00  " 
 INFO 2026-06-28T19:34:57.912 ..\..\src\rawdatamodel.cpp @ 17 Raw Data Model Line =  "[RTU]>Tx > 19:34:57:912 : 01  03  00  00  00  19  84  00  "  , No of lines =  27 
 INFO 2026-06-28T19:34:57.912 ..\..\src\modbusadapter.cpp @ 377 Rx Data :  "01  03  32  17  02  02  01  03  00  8d  c2  00  03  09  dc  01  23  34  20  01  32  00  31  04  0a  03  00  00  00  00  00  00  00  00  00  00  00  00  00  00  00  1d  0e  67  da  d6  f1  6f  9e  fc  98  5e  1f  7d  c0  " 
 INFO 2026-06-28T19:34:57.912 ..\..\src\rawdatamodel.cpp @ 17 Raw Data Model Line =  "[RTU]>Rx > 19:34:57:912 : 01  03  32  17  02  02  01  03  00  8D  C2  00  03  09  DC  01  23  34  20  01  32  00  31  04  0A  03  00  00  00  00  00  00  00  00  00  00  00  00  00  00  00  1D  0E  67  DA  D6  F1  6F  9E  FC  98  5E  1F  7D  C0  "  , No of lines =  28 
 INFO 2026-06-28T19:34:57.912 ..\..\src\modbusadapter.cpp @ 224 Modbus Read Data return value =  25 
 INFO 2026-06-28T19:34:57.912 ..\..\src\mainwindow.cpp @ 547 Packets sent / received =  84 , errors =  11 
 INFO 2026-06-28T19:35:00.591 ..\..\src\rawdatamodel.cpp @ 29 Raw Data Model cleared 
 INFO 2026-06-28T19:35:02.091 ..\..\src\mainwindow.cpp @ 440 Request transaction. No or registers =  3 
 INFO 2026-06-28T19:35:02.091 ..\..\src\modbusadapter.cpp @ 159 Modbus Transaction. Function Code =  3 
 INFO 2026-06-28T19:35:02.091 ..\..\src\modbusadapter.cpp @ 188 Modbus Read Data  
 INFO 2026-06-28T19:35:02.091 ..\..\src\modbusadapter.cpp @ 358 Tx Data :  "01  03  00  00  00  19  84  00  " 
 INFO 2026-06-28T19:35:02.091 ..\..\src\rawdatamodel.cpp @ 17 Raw Data Model Line =  "[RTU]>Tx > 19:35:02:091 : 01  03  00  00  00  19  84  00  "  , No of lines =  0 
 INFO 2026-06-28T19:35:02.091 ..\..\src\modbusadapter.cpp @ 377 Rx Data :  "01  03  32  17  02  02  01  03  00  8d  c2  00  03  09  dc  01  23  34  20  01  32  00  31  04  0a  03  00  00  00  00  00  00  00  00  00  00  00  00  00  00  00  e2  f3  98  25  d6  f3  6f  9e  03  5e  a1  e1  51  e4  " 
 INFO 2026-06-28T19:35:02.091 ..\..\src\rawdatamodel.cpp @ 17 Raw Data Model Line =  "[RTU]>Rx > 19:35:02:091 : 01  03  32  17  02  02  01  03  00  8D  C2  00  03  09  DC  01  23  34  20  01  32  00  31  04  0A  03  00  00  00  00  00  00  00  00  00  00  00  00  00  00  00  E2  F3  98  25  D6  F3  6F  9E  03  5E  A1  E1  51  E4  "  , No of lines =  1 
 INFO 2026-06-28T19:35:02.091 ..\..\src\modbusadapter.cpp @ 224 Modbus Read Data return value =  25 
 INFO 2026-06-28T19:35:02.091 ..\..\src\mainwindow.cpp @ 547 Packets sent / received =  85 , errors =  11 
 INFO 2026-06-28T19:35:03.263 ..\..\src\mainwindow.cpp @ 440 Request transaction. No or registers =  3 
 INFO 2026-06-28T19:35:03.263 ..\..\src\modbusadapter.cpp @ 159 Modbus Transaction. Function Code =  3 
 INFO 2026-06-28T19:35:03.263 ..\..\src\modbusadapter.cpp @ 188 Modbus Read Data  
 INFO 2026-06-28T19:35:03.263 ..\..\src\modbusadapter.cpp @ 358 Tx Data :  "01  03  00  00  00  19  84  00  " 
 INFO 2026-06-28T19:35:03.263 ..\..\src\rawdatamodel.cpp @ 17 Raw Data Model Line =  "[RTU]>Tx > 19:35:03:263 : 01  03  00  00  00  19  84  00  "  , No of lines =  2 
 INFO 2026-06-28T19:35:03.278 ..\..\src\modbusadapter.cpp @ 377 Rx Data :  "01  03  32  17  02  02  01  03  00  8d  c2  00  03  09  dc  01  23  34  20  01  32  00  31  04  0a  03  00  00  00  00  00  00  00  00  00  00  00  00  00  00  00  1d  32  67  da  d6  cd  6f  9e  fc  e0  5e  1f  c1  8a  " 
 INFO 2026-06-28T19:35:03.278 ..\..\src\rawdatamodel.cpp @ 17 Raw Data Model Line =  "[RTU]>Rx > 19:35:03:278 : 01  03  32  17  02  02  01  03  00  8D  C2  00  03  09  DC  01  23  34  20  01  32  00  31  04  0A  03  00  00  00  00  00  00  00  00  00  00  00  00  00  00  00  1D  32  67  DA  D6  CD  6F  9E  FC  E0  5E  1F  C1  8A  "  , No of lines =  3 
 INFO 2026-06-28T19:35:03.278 ..\..\src\modbusadapter.cpp @ 224 Modbus Read Data return value =  25 
 INFO 2026-06-28T19:35:03.278 ..\..\src\mainwindow.cpp @ 547 Packets sent / received =  86 , errors =  11 
 INFO 2026-06-28T19:35:04.142 ..\..\src\mainwindow.cpp @ 440 Request transaction. No or registers =  3 
 INFO 2026-06-28T19:35:04.142 ..\..\src\modbusadapter.cpp @ 159 Modbus Transaction. Function Code =  3 
 INFO 2026-06-28T19:35:04.142 ..\..\src\modbusadapter.cpp @ 188 Modbus Read Data  
 INFO 2026-06-28T19:35:04.142 ..\..\src\modbusadapter.cpp @ 358 Tx Data :  "01  03  00  00  00  19  84  00  " 
 INFO 2026-06-28T19:35:04.142 ..\..\src\rawdatamodel.cpp @ 17 Raw Data Model Line =  "[RTU]>Tx > 19:35:04:142 : 01  03  00  00  00  19  84  00  "  , No of lines =  4 
 INFO 2026-06-28T19:35:04.142 ..\..\src\modbusadapter.cpp @ 377 Rx Data :  "01  03  32  17  02  02  01  03  00  8d  c2  00  03  09  dc  01  23  34  20  01  32  00  31  04  0a  03  00  00  00  00  00  00  00  00  00  00  00  00  00  00  00  e2  cf  98  25  d6  cf  6f  9e  03  5e  a1  e1  6d  b7  " 
 INFO 2026-06-28T19:35:04.142 ..\..\src\rawdatamodel.cpp @ 17 Raw Data Model Line =  "[RTU]>Rx > 19:35:04:142 : 01  03  32  17  02  02  01  03  00  8D  C2  00  03  09  DC  01  23  34  20  01  32  00  31  04  0A  03  00  00  00  00  00  00  00  00  00  00  00  00  00  00  00  E2  CF  98  25  D6  CF  6F  9E  03  5E  A1  E1  6D  B7  "  , No of lines =  5 
 INFO 2026-06-28T19:35:04.142 ..\..\src\modbusadapter.cpp @ 224 Modbus Read Data return value =  25 
 INFO 2026-06-28T19:35:04.142 ..\..\src\mainwindow.cpp @ 547 Packets sent / received =  87 , errors =  11 
 INFO 2026-06-28T19:35:04.857 ..\..\src\mainwindow.cpp @ 440 Request transaction. No or registers =  3 
 INFO 2026-06-28T19:35:04.857 ..\..\src\modbusadapter.cpp @ 159 Modbus Transaction. Function Code =  3 
 INFO 2026-06-28T19:35:04.857 ..\..\src\modbusadapter.cpp @ 188 Modbus Read Data  
 INFO 2026-06-28T19:35:04.857 ..\..\src\modbusadapter.cpp @ 358 Tx Data :  "01  03  00  00  00  19  84  00  " 
 INFO 2026-06-28T19:35:04.857 ..\..\src\rawdatamodel.cpp @ 17 Raw Data Model Line =  "[RTU]>Tx > 19:35:04:857 : 01  03  00  00  00  19  84  00  "  , No of lines =  6 
 INFO 2026-06-28T19:35:04.857 ..\..\src\modbusadapter.cpp @ 377 Rx Data :  "01  03  32  17  02  02  01  03  00  8d  c2  00  03  09  dc  01  23  34  20  01  32  00  31  04  0a  03  00  00  00  00  00  00  00  00  00  00  00  00  00  00  00  1d  36  67  da  d6  c9  6f  9e  fc  e8  5e  1f  10  b8  " 
 INFO 2026-06-28T19:35:04.857 ..\..\src\rawdatamodel.cpp @ 17 Raw Data Model Line =  "[RTU]>Rx > 19:35:04:857 : 01  03  32  17  02  02  01  03  00  8D  C2  00  03  09  DC  01  23  34  20  01  32  00  31  04  0A  03  00  00  00  00  00  00  00  00  00  00  00  00  00  00  00  1D  36  67  DA  D6  C9  6F  9E  FC  E8  5E  1F  10  B8  "  , No of lines =  7 
 INFO 2026-06-28T19:35:04.857 ..\..\src\modbusadapter.cpp @ 224 Modbus Read Data return value =  25 
 INFO 2026-06-28T19:35:04.857 ..\..\src\mainwindow.cpp @ 547 Packets sent / received =  88 , errors =  11 
 INFO 2026-06-28T19:35:05.527 ..\..\src\mainwindow.cpp @ 440 Request transaction. No or registers =  3 
 INFO 2026-06-28T19:35:05.527 ..\..\src\modbusadapter.cpp @ 159 Modbus Transaction. Function Code =  3 
 INFO 2026-06-28T19:35:05.527 ..\..\src\modbusadapter.cpp @ 188 Modbus Read Data  
 INFO 2026-06-28T19:35:05.527 ..\..\src\modbusadapter.cpp @ 358 Tx Data :  "01  03  00  00  00  19  84  00  " 
 INFO 2026-06-28T19:35:05.527 ..\..\src\rawdatamodel.cpp @ 17 Raw Data Model Line =  "[RTU]>Tx > 19:35:05:527 : 01  03  00  00  00  19  84  00  "  , No of lines =  8 
 INFO 2026-06-28T19:35:05.527 ..\..\src\modbusadapter.cpp @ 377 Rx Data :  "01  03  32  17  02  02  01  03  00  8d  c2  00  03  09  dc  01  23  34  20  01  32  00  31  04  0a  03  00  00  00  00  00  00  00  00  00  00  00  00  00  00  00  e2  cb  98  25  d6  cb  6f  9e  03  5e  a1  e1  3d  47  " 
 INFO 2026-06-28T19:35:05.527 ..\..\src\rawdatamodel.cpp @ 17 Raw Data Model Line =  "[RTU]>Rx > 19:35:05:527 : 01  03  32  17  02  02  01  03  00  8D  C2  00  03  09  DC  01  23  34  20  01  32  00  31  04  0A  03  00  00  00  00  00  00  00  00  00  00  00  00  00  00  00  E2  CB  98  25  D6  CB  6F  9E  03  5E  A1  E1  3D  47  "  , No of lines =  9 
 INFO 2026-06-28T19:35:05.527 ..\..\src\modbusadapter.cpp @ 224 Modbus Read Data return value =  25 
 INFO 2026-06-28T19:35:05.527 ..\..\src\mainwindow.cpp @ 547 Packets sent / received =  89 , errors =  11 
 INFO 2026-06-28T19:35:06.241 ..\..\src\mainwindow.cpp @ 440 Request transaction. No or registers =  3 
 INFO 2026-06-28T19:35:06.241 ..\..\src\modbusadapter.cpp @ 159 Modbus Transaction. Function Code =  3 
 INFO 2026-06-28T19:35:06.241 ..\..\src\modbusadapter.cpp @ 188 Modbus Read Data  
 INFO 2026-06-28T19:35:06.241 ..\..\src\modbusadapter.cpp @ 358 Tx Data :  "01  03  00  00  00  19  84  00  " 
 INFO 2026-06-28T19:35:06.241 ..\..\src\rawdatamodel.cpp @ 17 Raw Data Model Line =  "[RTU]>Tx > 19:35:06:241 : 01  03  00  00  00  19  84  00  "  , No of lines =  10 
 INFO 2026-06-28T19:35:06.241 ..\..\src\modbusadapter.cpp @ 377 Rx Data :  "01  03  32  17  02  02  01  03  00  8d  c2  00  03  09  dc  01  23  34  20  01  32  00  31  04  0a  03  00  00  00  00  00  00  00  00  00  00  00  00  00  00  00  1d  3a  67  da  d6  c5  6f  9e  fc  f0  5e  1f  63  ef  " 
 INFO 2026-06-28T19:35:06.241 ..\..\src\rawdatamodel.cpp @ 17 Raw Data Model Line =  "[RTU]>Rx > 19:35:06:241 : 01  03  32  17  02  02  01  03  00  8D  C2  00  03  09  DC  01  23  34  20  01  32  00  31  04  0A  03  00  00  00  00  00  00  00  00  00  00  00  00  00  00  00  1D  3A  67  DA  D6  C5  6F  9E  FC  F0  5E  1F  63  EF  "  , No of lines =  11 
 INFO 2026-06-28T19:35:06.241 ..\..\src\modbusadapter.cpp @ 224 Modbus Read Data return value =  25 
 INFO 2026-06-28T19:35:06.241 ..\..\src\mainwindow.cpp @ 547 Packets sent / received =  90 , errors =  11 
 INFO 2026-06-28T19:35:06.903 ..\..\src\mainwindow.cpp @ 440 Request transaction. No or registers =  3 
 INFO 2026-06-28T19:35:06.903 ..\..\src\modbusadapter.cpp @ 159 Modbus Transaction. Function Code =  3 
 INFO 2026-06-28T19:35:06.903 ..\..\src\modbusadapter.cpp @ 188 Modbus Read Data  
 INFO 2026-06-28T19:35:06.903 ..\..\src\modbusadapter.cpp @ 358 Tx Data :  "01  03  00  00  00  19  84  00  " 
 INFO 2026-06-28T19:35:06.903 ..\..\src\rawdatamodel.cpp @ 17 Raw Data Model Line =  "[RTU]>Tx > 19:35:06:903 : 01  03  00  00  00  19  84  00  "  , No of lines =  12 
 INFO 2026-06-28T19:35:06.903 ..\..\src\modbusadapter.cpp @ 377 Rx Data :  "01  03  32  17  02  02  01  03  00  8d  c2  00  03  09  dc  01  23  34  20  01  32  00  31  04  0a  03  00  00  00  00  00  00  00  00  00  00  00  00  00  00  00  e2  c7  98  25  d6  c7  6f  9e  03  5e  a1  e1  ce  17  " 
 INFO 2026-06-28T19:35:06.903 ..\..\src\rawdatamodel.cpp @ 17 Raw Data Model Line =  "[RTU]>Rx > 19:35:06:903 : 01  03  32  17  02  02  01  03  00  8D  C2  00  03  09  DC  01  23  34  20  01  32  00  31  04  0A  03  00  00  00  00  00  00  00  00  00  00  00  00  00  00  00  E2  C7  98  25  D6  C7  6F  9E  03  5E  A1  E1  CE  17  "  , No of lines =  13 
 INFO 2026-06-28T19:35:06.903 ..\..\src\modbusadapter.cpp @ 224 Modbus Read Data return value =  25 
 INFO 2026-06-28T19:35:06.903 ..\..\src\mainwindow.cpp @ 547 Packets sent / received =  91 , errors =  11 
 INFO 2026-06-28T19:35:07.567 ..\..\src\mainwindow.cpp @ 440 Request transaction. No or registers =  3 
 INFO 2026-06-28T19:35:07.567 ..\..\src\modbusadapter.cpp @ 159 Modbus Transaction. Function Code =  3 
 INFO 2026-06-28T19:35:07.567 ..\..\src\modbusadapter.cpp @ 188 Modbus Read Data  
 INFO 2026-06-28T19:35:07.567 ..\..\src\modbusadapter.cpp @ 358 Tx Data :  "01  03  00  00  00  19  84  00  " 
 INFO 2026-06-28T19:35:07.567 ..\..\src\rawdatamodel.cpp @ 17 Raw Data Model Line =  "[RTU]>Tx > 19:35:07:567 : 01  03  00  00  00  19  84  00  "  , No of lines =  14 
 INFO 2026-06-28T19:35:07.567 ..\..\src\modbusadapter.cpp @ 377 Rx Data :  "01  03  32  17  02  02  01  03  00  8d  c2  00  03  09  dc  01  23  34  20  01  32  00  31  04  0a  03  00  00  00  00  00  00  00  00  00  00  00  00  00  00  00  1d  3e  67  da  d6  c1  6f  9e  fc  f8  5e  1f  b2  dd  " 
 INFO 2026-06-28T19:35:07.583 ..\..\src\rawdatamodel.cpp @ 17 Raw Data Model Line =  "[RTU]>Rx > 19:35:07:583 : 01  03  32  17  02  02  01  03  00  8D  C2  00  03  09  DC  01  23  34  20  01  32  00  31  04  0A  03  00  00  00  00  00  00  00  00  00  00  00  00  00  00  00  1D  3E  67  DA  D6  C1  6F  9E  FC  F8  5E  1F  B2  DD  "  , No of lines =  15 
 INFO 2026-06-28T19:35:07.583 ..\..\src\modbusadapter.cpp @ 224 Modbus Read Data return value =  25 
 INFO 2026-06-28T19:35:07.583 ..\..\src\mainwindow.cpp @ 547 Packets sent / received =  92 , errors =  11 
 INFO 2026-06-28T19:35:08.168 ..\..\src\mainwindow.cpp @ 440 Request transaction. No or registers =  3 
 INFO 2026-06-28T19:35:08.168 ..\..\src\modbusadapter.cpp @ 159 Modbus Transaction. Function Code =  3 
 INFO 2026-06-28T19:35:08.168 ..\..\src\modbusadapter.cpp @ 188 Modbus Read Data  
 INFO 2026-06-28T19:35:08.168 ..\..\src\modbusadapter.cpp @ 358 Tx Data :  "01  03  00  00  00  19  84  00  " 
 INFO 2026-06-28T19:35:08.168 ..\..\src\rawdatamodel.cpp @ 17 Raw Data Model Line =  "[RTU]>Tx > 19:35:08:168 : 01  03  00  00  00  19  84  00  "  , No of lines =  16 
 INFO 2026-06-28T19:35:08.168 ..\..\src\modbusadapter.cpp @ 377 Rx Data :  "01  03  32  17  02  02  01  03  00  8d  c2  00  03  09  dc  01  23  34  20  01  32  00  31  04  0a  03  00  00  00  00  00  00  00  00  00  00  00  00  00  00  00  e2  c3  98  25  d6  c3  6f  9e  03  5e  a1  e1  9e  e7  " 
 INFO 2026-06-28T19:35:08.168 ..\..\src\rawdatamodel.cpp @ 17 Raw Data Model Line =  "[RTU]>Rx > 19:35:08:168 : 01  03  32  17  02  02  01  03  00  8D  C2  00  03  09  DC  01  23  34  20  01  32  00  31  04  0A  03  00  00  00  00  00  00  00  00  00  00  00  00  00  00  00  E2  C3  98  25  D6  C3  6F  9E  03  5E  A1  E1  9E  E7  "  , No of lines =  17 
 INFO 2026-06-28T19:35:08.168 ..\..\src\modbusadapter.cpp @ 224 Modbus Read Data return value =  25 
 INFO 2026-06-28T19:35:08.168 ..\..\src\mainwindow.cpp @ 547 Packets sent / received =  93 , errors =  11 
 INFO 2026-06-28T19:35:08.801 ..\..\src\mainwindow.cpp @ 440 Request transaction. No or registers =  3 
 INFO 2026-06-28T19:35:08.801 ..\..\src\modbusadapter.cpp @ 159 Modbus Transaction. Function Code =  3 
 INFO 2026-06-28T19:35:08.801 ..\..\src\modbusadapter.cpp @ 188 Modbus Read Data  
 INFO 2026-06-28T19:35:08.801 ..\..\src\modbusadapter.cpp @ 358 Tx Data :  "01  03  00  00  00  19  84  00  " 
 INFO 2026-06-28T19:35:08.801 ..\..\src\rawdatamodel.cpp @ 17 Raw Data Model Line =  "[RTU]>Tx > 19:35:08:801 : 01  03  00  00  00  19  84  00  "  , No of lines =  18 
 INFO 2026-06-28T19:35:08.801 ..\..\src\modbusadapter.cpp @ 377 Rx Data :  "01  03  32  17  02  02  01  03  00  8d  c2  00  03  09  dc  01  23  34  20  01  32  00  31  04  0a  03  00  00  00  00  00  00  00  00  00  00  00  00  00  00  00  1d  22  67  da  d6  dd  6f  9e  fc  c0  5e  1f  85  41  " 
 INFO 2026-06-28T19:35:08.801 ..\..\src\rawdatamodel.cpp @ 17 Raw Data Model Line =  "[RTU]>Rx > 19:35:08:801 : 01  03  32  17  02  02  01  03  00  8D  C2  00  03  09  DC  01  23  34  20  01  32  00  31  04  0A  03  00  00  00  00  00  00  00  00  00  00  00  00  00  00  00  1D  22  67  DA  D6  DD  6F  9E  FC  C0  5E  1F  85  41  "  , No of lines =  19 
 INFO 2026-06-28T19:35:08.801 ..\..\src\modbusadapter.cpp @ 224 Modbus Read Data return value =  25 
 INFO 2026-06-28T19:35:08.801 ..\..\src\mainwindow.cpp @ 547 Packets sent / received =  94 , errors =  11 
 INFO 2026-06-28T19:35:10.115 ..\..\src\mainwindow.cpp @ 364 No Of Regs changed. Value =  2 
 INFO 2026-06-28T19:35:10.115 ..\..\src\mainwindow.cpp @ 415 Add Items. Function Code =  "3" 
 INFO 2026-06-28T19:35:10.115 ..\..\src\registersmodel.cpp @ 28 Registers Model Address =  0  , noOfItems =  2  , offset =  0  , first row =  0  , last row =  0 
 INFO 2026-06-28T19:35:10.115 ..\..\src\registersmodel.cpp @ 202 Registers Model Cleared 
 INFO 2026-06-28T19:35:10.115 ..\..\src\mainwindow.cpp @ 547 Packets sent / received =  94 , errors =  11 
 INFO 2026-06-28T19:35:10.857 ..\..\src\mainwindow.cpp @ 364 No Of Regs changed. Value =  1 
 INFO 2026-06-28T19:35:10.857 ..\..\src\mainwindow.cpp @ 415 Add Items. Function Code =  "3" 
 INFO 2026-06-28T19:35:10.857 ..\..\src\registersmodel.cpp @ 28 Registers Model Address =  0  , noOfItems =  1  , offset =  0  , first row =  0  , last row =  0 
 INFO 2026-06-28T19:35:10.857 ..\..\src\registersmodel.cpp @ 202 Registers Model Cleared 
 INFO 2026-06-28T19:35:10.857 ..\..\src\mainwindow.cpp @ 547 Packets sent / received =  94 , errors =  11 
 INFO 2026-06-28T19:35:11.041 ..\..\src\mainwindow.cpp @ 364 No Of Regs changed. Value =  10 
 INFO 2026-06-28T19:35:11.041 ..\..\src\mainwindow.cpp @ 415 Add Items. Function Code =  "3" 
 INFO 2026-06-28T19:35:11.041 ..\..\src\registersmodel.cpp @ 28 Registers Model Address =  0  , noOfItems =  10  , offset =  0  , first row =  0  , last row =  0 
 INFO 2026-06-28T19:35:11.041 ..\..\src\registersmodel.cpp @ 202 Registers Model Cleared 
 INFO 2026-06-28T19:35:11.041 ..\..\src\mainwindow.cpp @ 547 Packets sent / received =  94 , errors =  11 
 INFO 2026-06-28T19:35:11.191 ..\..\src\mainwindow.cpp @ 364 No Of Regs changed. Value =  100 
 INFO 2026-06-28T19:35:11.191 ..\..\src\mainwindow.cpp @ 415 Add Items. Function Code =  "3" 
 INFO 2026-06-28T19:35:11.191 ..\..\src\registersmodel.cpp @ 28 Registers Model Address =  0  , noOfItems =  100  , offset =  0  , first row =  0  , last row =  9 
 INFO 2026-06-28T19:35:11.191 ..\..\src\registersmodel.cpp @ 202 Registers Model Cleared 
 INFO 2026-06-28T19:35:11.191 ..\..\src\mainwindow.cpp @ 547 Packets sent / received =  94 , errors =  11 
 INFO 2026-06-28T19:35:11.919 ..\..\src\mainwindow.cpp @ 440 Request transaction. No or registers =  10 
 INFO 2026-06-28T19:35:11.919 ..\..\src\modbusadapter.cpp @ 159 Modbus Transaction. Function Code =  3 
 INFO 2026-06-28T19:35:11.919 ..\..\src\modbusadapter.cpp @ 188 Modbus Read Data  
 INFO 2026-06-28T19:35:11.919 ..\..\src\modbusadapter.cpp @ 358 Tx Data :  "01  03  00  00  00  64  44  21  " 
 INFO 2026-06-28T19:35:11.919 ..\..\src\rawdatamodel.cpp @ 17 Raw Data Model Line =  "[RTU]>Tx > 19:35:11:919 : 01  03  00  00  00  64  44  21  "  , No of lines =  20 
 INFO 2026-06-28T19:35:11.919 ..\..\src\modbusadapter.cpp @ 377 Rx Data :  "01  03  32  17  02  02  01  03  00  8d  c2  00  03  09  dc  01  23  34  20  01  32  00  31  04  0a  03  00  00  00  00  00  00  00  00  00  00  00  00  00  00  00  e2  df  98  25  d6  df  6f  9e  03  5e  a1  e1  28  b6  " 
 INFO 2026-06-28T19:35:11.919 ..\..\src\rawdatamodel.cpp @ 17 Raw Data Model Line =  "[RTU]>Rx > 19:35:11:919 : 01  03  32  17  02  02  01  03  00  8D  C2  00  03  09  DC  01  23  34  20  01  32  00  31  04  0A  03  00  00  00  00  00  00  00  00  00  00  00  00  00  00  00  E2  DF  98  25  D6  DF  6F  9E  03  5E  A1  E1  28  B6  "  , No of lines =  21 
 INFO 2026-06-28T19:35:11.919 ..\..\src\modbusadapter.cpp @ 224 Modbus Read Data return value =  -1 
ERROR 2026-06-28T19:35:11.935 ..\..\src\modbusadapter.cpp @ 245 Modbus Read Data failed.  "System exception. [Invalid data]" 
 INFO 2026-06-28T19:35:11.935 ..\..\src\rawdatamodel.cpp @ 17 Raw Data Model Line =  "Sys > 19:35:11:935 : System exception. [Invalid data]"  , No of lines =  22 
 INFO 2026-06-28T19:35:11.935 ..\..\src\mainwindow.cpp @ 547 Packets sent / received =  95 , errors =  12 
 INFO 2026-06-28T19:35:14.245 ..\..\src\mainwindow.cpp @ 440 Request transaction. No or registers =  10 
 INFO 2026-06-28T19:35:14.245 ..\..\src\modbusadapter.cpp @ 159 Modbus Transaction. Function Code =  3 
 INFO 2026-06-28T19:35:14.245 ..\..\src\modbusadapter.cpp @ 188 Modbus Read Data  
 INFO 2026-06-28T19:35:14.245 ..\..\src\modbusadapter.cpp @ 358 Tx Data :  "01  03  00  00  00  64  44  21  " 
 INFO 2026-06-28T19:35:14.245 ..\..\src\rawdatamodel.cpp @ 17 Raw Data Model Line =  "[RTU]>Tx > 19:35:14:245 : 01  03  00  00  00  64  44  21  "  , No of lines =  23 
 INFO 2026-06-28T19:35:14.245 ..\..\src\modbusadapter.cpp @ 377 Rx Data :  "01  83  10  40  fc  " 
 INFO 2026-06-28T19:35:14.245 ..\..\src\rawdatamodel.cpp @ 17 Raw Data Model Line =  "[RTU]>Rx > 19:35:14:245 : 01  83  10  40  FC  "  , No of lines =  24 
 INFO 2026-06-28T19:35:14.245 ..\..\src\modbusadapter.cpp @ 224 Modbus Read Data return value =  -1 
ERROR 2026-06-28T19:35:14.245 ..\..\src\modbusadapter.cpp @ 245 Modbus Read Data failed.  "System exception. [Bad file descriptor]" 
 INFO 2026-06-28T19:35:14.245 ..\..\src\rawdatamodel.cpp @ 17 Raw Data Model Line =  "Sys > 19:35:14:245 : System exception. [Bad file descriptor]"  , No of lines =  25 
 INFO 2026-06-28T19:35:14.245 ..\..\src\mainwindow.cpp @ 547 Packets sent / received =  96 , errors =  13 
 INFO 2026-06-28T19:35:16.942 ..\..\src\mainwindow.cpp @ 440 Request transaction. No or registers =  10 
 INFO 2026-06-28T19:35:16.942 ..\..\src\modbusadapter.cpp @ 159 Modbus Transaction. Function Code =  3 
 INFO 2026-06-28T19:35:16.942 ..\..\src\modbusadapter.cpp @ 188 Modbus Read Data  
 INFO 2026-06-28T19:35:16.942 ..\..\src\modbusadapter.cpp @ 358 Tx Data :  "01  03  00  00  00  64  44  21  " 
 INFO 2026-06-28T19:35:16.942 ..\..\src\rawdatamodel.cpp @ 17 Raw Data Model Line =  "[RTU]>Tx > 19:35:16:942 : 01  03  00  00  00  64  44  21  "  , No of lines =  26 
 INFO 2026-06-28T19:35:16.942 ..\..\src\modbusadapter.cpp @ 377 Rx Data :  "01  83  10  40  fc  " 
 INFO 2026-06-28T19:35:16.942 ..\..\src\rawdatamodel.cpp @ 17 Raw Data Model Line =  "[RTU]>Rx > 19:35:16:942 : 01  83  10  40  FC  "  , No of lines =  27 
 INFO 2026-06-28T19:35:16.942 ..\..\src\modbusadapter.cpp @ 224 Modbus Read Data return value =  -1 
ERROR 2026-06-28T19:35:16.942 ..\..\src\modbusadapter.cpp @ 245 Modbus Read Data failed.  "System exception. [Bad file descriptor]" 
 INFO 2026-06-28T19:35:16.942 ..\..\src\rawdatamodel.cpp @ 17 Raw Data Model Line =  "Sys > 19:35:16:942 : System exception. [Bad file descriptor]"  , No of lines =  28 
 INFO 2026-06-28T19:35:16.942 ..\..\src\mainwindow.cpp @ 547 Packets sent / received =  97 , errors =  14 
 INFO 2026-06-28T19:35:17.454 ..\..\src\mainwindow.cpp @ 510 Modbus Connect. Value =  false 
 INFO 2026-06-28T19:35:17.454 ..\..\src\modbusadapter.cpp @ 134 Modbus disconnected 
 INFO 2026-06-28T19:35:17.574 ..\..\src\mainwindow.cpp @ 309 Disconnected  
 INFO 2026-06-28T19:35:17.574 ..\..\src\mainwindow.cpp @ 547 Packets sent / received =  0 , errors =  0 
 INFO 2026-06-28T19:35:17.574 ..\..\src\mainwindow.cpp @ 547 Packets sent / received =  0 , errors =  0 
 INFO 2026-06-28T19:35:18.410 ..\..\src\mainwindow.cpp @ 510 Modbus Connect. Value =  true 
 INFO 2026-06-28T19:35:18.410 ..\..\src\modbusadapter.cpp @ 134 Modbus disconnected 
 INFO 2026-06-28T19:35:18.410 ..\..\src\modbusadapter.cpp @ 34 Modbus Connect RTU 
 INFO 2026-06-28T19:35:18.410 ..\..\src\modbusadapter.cpp @ 38 "Connecting to Serial Port [\\\\.\\COM11]..." 
 INFO 2026-06-28T19:35:18.410 ..\..\src\modbusadapter.cpp @ 62 "Connecting to Serial Port [\\\\.\\COM11]...OK" 
 INFO 2026-06-28T19:35:18.410 ..\..\src\rawdatamodel.cpp @ 17 Raw Data Model Line =  "Sys > 19:35:18:410 : Connecting to Serial Port [\\\\.\\COM11]...OK"  , No of lines =  29 
 INFO 2026-06-28T19:35:18.410 ..\..\src\mainwindow.cpp @ 305 Connected  
 INFO 2026-06-28T19:35:18.410 ..\..\src\mainwindow.cpp @ 547 Packets sent / received =  0 , errors =  0 
 INFO 2026-06-28T19:35:18.415 ..\..\src\mainwindow.cpp @ 547 Packets sent / received =  0 , errors =  0 
 INFO 2026-06-28T19:35:19.602 ..\..\src\mainwindow.cpp @ 440 Request transaction. No or registers =  10 
 INFO 2026-06-28T19:35:19.602 ..\..\src\modbusadapter.cpp @ 159 Modbus Transaction. Function Code =  3 
 INFO 2026-06-28T19:35:19.602 ..\..\src\modbusadapter.cpp @ 188 Modbus Read Data  
 INFO 2026-06-28T19:35:19.602 ..\..\src\modbusadapter.cpp @ 358 Tx Data :  "01  03  00  00  00  64  44  21  " 
 INFO 2026-06-28T19:35:19.602 ..\..\src\rawdatamodel.cpp @ 17 Raw Data Model Line =  "[RTU]>Tx > 19:35:19:602 : 01  03  00  00  00  64  44  21  "  , No of lines =  30 
 INFO 2026-06-28T19:35:19.665 ..\..\src\modbusadapter.cpp @ 377 Rx Data :  "01  83  10  40  fc  " 
 INFO 2026-06-28T19:35:19.665 ..\..\src\rawdatamodel.cpp @ 17 Raw Data Model Line =  "[RTU]>Rx > 19:35:19:665 : 01  83  10  40  FC  "  , No of lines =  31 
 INFO 2026-06-28T19:35:19.665 ..\..\src\modbusadapter.cpp @ 224 Modbus Read Data return value =  -1 
ERROR 2026-06-28T19:35:19.665 ..\..\src\modbusadapter.cpp @ 245 Modbus Read Data failed.  "System exception. [Bad file descriptor]" 
 INFO 2026-06-28T19:35:19.665 ..\..\src\rawdatamodel.cpp @ 17 Raw Data Model Line =  "Sys > 19:35:19:665 : System exception. [Bad file descriptor]"  , No of lines =  32 
 INFO 2026-06-28T19:35:19.665 ..\..\src\mainwindow.cpp @ 547 Packets sent / received =  1 , errors =  1 
 INFO 2026-06-28T19:35:23.687 ..\..\src\mainwindow.cpp @ 364 No Of Regs changed. Value =  2 
 INFO 2026-06-28T19:35:23.687 ..\..\src\mainwindow.cpp @ 415 Add Items. Function Code =  "3" 
 INFO 2026-06-28T19:35:23.687 ..\..\src\registersmodel.cpp @ 28 Registers Model Address =  0  , noOfItems =  2  , offset =  0  , first row =  0  , last row =  0 
 INFO 2026-06-28T19:35:23.687 ..\..\src\registersmodel.cpp @ 202 Registers Model Cleared 
 INFO 2026-06-28T19:35:23.687 ..\..\src\mainwindow.cpp @ 547 Packets sent / received =  1 , errors =  1 
 INFO 2026-06-28T19:35:24.809 ..\..\src\mainwindow.cpp @ 364 No Of Regs changed. Value =  6 
 INFO 2026-06-28T19:35:24.809 ..\..\src\mainwindow.cpp @ 415 Add Items. Function Code =  "3" 
 INFO 2026-06-28T19:35:24.809 ..\..\src\registersmodel.cpp @ 28 Registers Model Address =  0  , noOfItems =  6  , offset =  0  , first row =  0  , last row =  0 
 INFO 2026-06-28T19:35:24.809 ..\..\src\registersmodel.cpp @ 202 Registers Model Cleared 
 INFO 2026-06-28T19:35:24.809 ..\..\src\mainwindow.cpp @ 547 Packets sent / received =  1 , errors =  1 
 INFO 2026-06-28T19:35:24.872 ..\..\src\mainwindow.cpp @ 364 No Of Regs changed. Value =  64 
 INFO 2026-06-28T19:35:24.872 ..\..\src\mainwindow.cpp @ 415 Add Items. Function Code =  "3" 
 INFO 2026-06-28T19:35:24.872 ..\..\src\registersmodel.cpp @ 28 Registers Model Address =  0  , noOfItems =  64  , offset =  0  , first row =  0  , last row =  6 
 INFO 2026-06-28T19:35:24.872 ..\..\src\registersmodel.cpp @ 202 Registers Model Cleared 
 INFO 2026-06-28T19:35:24.872 ..\..\src\mainwindow.cpp @ 547 Packets sent / received =  1 , errors =  1 
 INFO 2026-06-28T19:35:26.009 ..\..\src\mainwindow.cpp @ 440 Request transaction. No or registers =  7 
 INFO 2026-06-28T19:35:26.009 ..\..\src\modbusadapter.cpp @ 159 Modbus Transaction. Function Code =  3 
 INFO 2026-06-28T19:35:26.009 ..\..\src\modbusadapter.cpp @ 188 Modbus Read Data  
 INFO 2026-06-28T19:35:26.009 ..\..\src\modbusadapter.cpp @ 358 Tx Data :  "01  03  00  00  00  40  44  3a  " 
 INFO 2026-06-28T19:35:26.009 ..\..\src\rawdatamodel.cpp @ 17 Raw Data Model Line =  "[RTU]>Tx > 19:35:26:009 : 01  03  00  00  00  40  44  3A  "  , No of lines =  33 
 INFO 2026-06-28T19:35:26.092 ..\..\src\modbusadapter.cpp @ 377 Rx Data :  "01  83  10  40  fc  " 
 INFO 2026-06-28T19:35:26.092 ..\..\src\rawdatamodel.cpp @ 17 Raw Data Model Line =  "[RTU]>Rx > 19:35:26:092 : 01  83  10  40  FC  "  , No of lines =  34 
 INFO 2026-06-28T19:35:26.092 ..\..\src\modbusadapter.cpp @ 224 Modbus Read Data return value =  -1 
